Title: * auto-testbench (planar graph mapped to ro grid)
Date: Fri Nov 21 17:47:47  2025
Command: ngspice-45.2, Build Sep  6 2025   16:26:01
Plotname: Transient Analysis
Flags: real
No. Variables: 5
No. Points: 10013
Variables:
	0	time	time
	1	v(n_0_0_1)	voltage
	2	v(n_0_1_1)	voltage
	3	v(n_0_2_1)	voltage
	4	v(n_0_3_1)	voltage
Values:
 0	1.000000000000000e-12
	6.641787963709366e-01
	6.691423443369946e-01
	6.611299301055346e-01
	6.543348697020442e-01

 1	1.149867017304965e-12
	6.644596366539131e-01
	6.693999948038208e-01
	6.614289759932545e-01
	6.546653639859485e-01

 2	1.449601051914895e-12
	6.644021573832340e-01
	6.693425426945867e-01
	6.613936723926181e-01
	6.546308193814385e-01

 3	2.049069121134755e-12
	6.642546820496525e-01
	6.691979070814977e-01
	6.612927489759074e-01
	6.545285522447560e-01

 4	3.248005259574475e-12
	6.639910398549538e-01
	6.689374261325912e-01
	6.611202173329437e-01
	6.543561260897658e-01

 5	5.645877536453914e-12
	6.634306807542558e-01
	6.683866861816238e-01
	6.607445826149466e-01
	6.539779254613963e-01

 6	1.044162209021279e-11
	6.623325240154767e-01
	6.673082816210244e-01
	6.600157275881849e-01
	6.532459997902007e-01

 7	2.003311119773055e-11
	6.600779469959787e-01
	6.651074842849174e-01
	6.585062598702364e-01
	6.517259551690354e-01

 8	3.921608941276607e-11
	6.557778645625821e-01
	6.608943493262699e-01
	6.556314882994736e-01
	6.488974038149965e-01

 9	7.758204584283709e-11
	6.473216715226060e-01
	6.525492051604805e-01
	6.497284989736634e-01
	6.433461707806734e-01

 10	1.000000000000000e-10
	6.420142546817366e-01
	6.472836304623667e-01
	6.458295062159753e-01
	6.397951916248058e-01

 11	1.076731912860142e-10
	6.401311152913320e-01
	6.454070421338950e-01
	6.444261741420382e-01
	6.385395025197619e-01

 12	1.230195738580426e-10
	6.363112962726994e-01
	6.415930397466567e-01
	6.415709337466983e-01
	6.360048064168121e-01

 13	1.537123390020994e-10
	6.287228898148158e-01
	6.340875470346738e-01
	6.358917445732724e-01
	6.309116428073931e-01

 14	2.150978692902131e-10
	6.150859621122283e-01
	6.214727377291754e-01
	6.257455310198146e-01
	6.208530246227310e-01

 15	3.150978692902131e-10
	5.964758405701817e-01
	6.061588904591888e-01
	6.119953866277610e-01
	6.050097285432404e-01

 16	4.150978692902131e-10
	5.796044056671816e-01
	5.927488929150400e-01
	5.995509289024107e-01
	5.898614924372276e-01

 17	5.150978692902131e-10
	5.631540783874602e-01
	5.791695425837741e-01
	5.873838548485015e-01
	5.753907118470529e-01

 18	6.150978692902131e-10
	5.470965576723944e-01
	5.654075005198035e-01
	5.754357630832694e-01
	5.615615275183405e-01

 19	7.150978692902130e-10
	5.315344823543173e-01
	5.516686663791078e-01
	5.637525806371151e-01
	5.483254726063110e-01

 20	8.150978692902130e-10
	5.165450793105739e-01
	5.381350498750543e-01
	5.523873456578762e-01
	5.356423705415104e-01

 21	9.150978692902130e-10
	5.021719334783953e-01
	5.249213811278733e-01
	5.413538373385709e-01
	5.234831066841795e-01

 22	1.015097869290213e-09
	4.884437710820373e-01
	5.121144757794071e-01
	5.306701317715532e-01
	5.118187646963192e-01

 23	1.115097869290213e-09
	4.753842106235441e-01
	4.997737119828618e-01
	5.203492755337576e-01
	5.006411442058831e-01

 24	1.215097869290213e-09
	4.630140312585162e-01
	4.879433080312723e-01
	5.104020452068442e-01
	4.899492097211348e-01

 25	1.315097869290213e-09
	4.513506696126470e-01
	4.766577010242601e-01
	5.008375797774258e-01
	4.797477505758432e-01

 26	1.415097869290213e-09
	4.404046440178298e-01
	4.659449724032854e-01
	4.916643491543956e-01
	4.700451082388896e-01

 27	1.515097869290213e-09
	4.301748380476990e-01
	4.558268665423950e-01
	4.828901231952488e-01
	4.608507042809074e-01

 28	1.615097869290213e-09
	4.206456181607773e-01
	4.463177537294307e-01
	4.745217731455882e-01
	4.521722167849694e-01

 29	1.715097869290214e-09
	4.117857386857113e-01
	4.374219724025111e-01
	4.665645353067270e-01
	4.440130495470112e-01

 30	1.815097869290214e-09
	4.035534198296187e-01
	4.291339588211812e-01
	4.590215740009803e-01
	4.363710602295666e-01

 31	1.915097869290214e-09
	3.959005245548612e-01
	4.214381392816222e-01
	4.518932243502519e-01
	4.292379340110172e-01

 32	2.015097869290214e-09
	3.887753076933960e-01
	4.143097223408830e-01
	4.451763873624465e-01
	4.225986091690621e-01

 33	2.115097869290214e-09
	3.821274481734899e-01
	4.077178943923837e-01
	4.388644682821330e-01
	4.164330187478342e-01

 34	2.215097869290214e-09
	3.759093050248948e-01
	4.016274206777484e-01
	4.329470890411185e-01
	4.107163865101966e-01

 35	2.315097869290214e-09
	3.700772479731940e-01
	3.960009807875363e-01
	4.274103436563838e-01
	4.054208864350724e-01

 36	2.415097869290214e-09
	3.645933049034333e-01
	3.908026405476426e-01
	4.222378546549750e-01
	4.005177112042098e-01

 37	2.515097869290214e-09
	3.594242264296985e-01
	3.859982184256677e-01
	4.174111446661899e-01
	3.959777558592180e-01

 38	2.615097869290214e-09
	3.545411726534837e-01
	3.815562904917086e-01
	4.129103805124438e-01
	3.917721863327410e-01

 39	2.715097869290214e-09
	3.499189856462540e-01
	3.774483110770114e-01
	4.087148640908595e-01
	3.878729675017354e-01

 40	2.815097869290214e-09
	3.455354971911139e-01
	3.736489625623085e-01
	4.048035671595891e-01
	3.842530076825758e-01

 41	2.915097869290214e-09
	3.413704766632597e-01
	3.701359681930341e-01
	4.011553982733124e-01
	3.808865310982592e-01

 42	3.015097869290214e-09
	3.374051865423864e-01
	3.668904452483668e-01
	3.977496519591373e-01
	3.777494310916784e-01

 43	3.115097869290214e-09
	3.336236827083435e-01
	3.638967681954124e-01
	3.945663528618248e-01
	3.748200881552934e-01

 44	3.215097869290215e-09
	3.300167284578501e-01
	3.611419405659508e-01
	3.915863426740554e-01
	3.720798949506607e-01

 45	3.315097869290215e-09
	3.265824461419544e-01
	3.586141225327811e-01
	3.887922545816685e-01
	3.695141401046660e-01

 46	3.415097869290215e-09
	3.233211531430960e-01
	3.563145007632828e-01
	3.861871655185084e-01
	3.671212632775581e-01

 47	3.515097869290215e-09
	3.202150928459437e-01
	3.542791189222835e-01
	3.838238523533844e-01
	3.649352426505456e-01

 48	3.615097869290215e-09
	3.171521618261105e-01
	3.525546584546901e-01
	3.817667873807957e-01
	3.630101111282616e-01

 49	3.715097869290215e-09
	3.136873052567163e-01
	3.511110672258592e-01
	3.799974485964923e-01
	3.613448918579896e-01

 50	3.815097869290215e-09
	3.079424311073400e-01
	3.497202934687105e-01
	3.782767979167982e-01
	3.597874559818194e-01

 51	3.915097869290215e-09
	2.947638457541913e-01
	3.480272124070439e-01
	3.762419065873753e-01
	3.580158907230919e-01

 52	4.015097869290215e-09
	2.694764473820279e-01
	3.459728279440092e-01
	3.737036004336933e-01
	3.558680379405472e-01

 53	4.115097869290215e-09
	2.341911540055749e-01
	3.432378700289780e-01
	3.696172435837197e-01
	3.530784745077399e-01

 54	4.215097869290215e-09
	1.956411137794889e-01
	3.359250377192584e-01
	3.579346455741366e-01
	3.468040618522897e-01

 55	4.315097869290215e-09
	1.594404109788480e-01
	3.175897166398827e-01
	3.330240203248599e-01
	3.285271138103394e-01

 56	4.415097869290215e-09
	1.297593926865936e-01
	2.898197837627258e-01
	2.983251561620621e-01
	2.947642620757525e-01

 57	4.515097869290215e-09
	1.073862456875840e-01
	2.579382350127566e-01
	2.607577931901878e-01
	2.506685106253633e-01

 58	4.615097869290215e-09
	9.027818742078707e-02
	2.258304192621287e-01
	2.245074508446355e-01
	2.039113933670172e-01

 59	4.715097869290215e-09
	7.691171685674680e-02
	1.966156626080719e-01
	1.919765402633944e-01
	1.610787675727407e-01

 60	4.815097869290215e-09
	6.645620182147462e-02
	1.718961898661725e-01
	1.642829198156752e-01
	1.260010472240437e-01

 61	4.915097869290215e-09
	5.811939780556646e-02
	1.515526297911053e-01
	1.413847854104033e-01
	9.953543086753333e-02

 62	5.015097869290215e-09
	5.139151323889729e-02
	1.350167020200947e-01
	1.226850033842949e-01
	8.056966926778235e-02

 63	5.115097869290215e-09
	4.581125416295533e-02
	1.213776071104068e-01
	1.077405925580671e-01
	6.625906185157775e-02

 64	5.215097869290215e-09
	4.129034503657635e-02
	1.096187074261643e-01
	9.565851165477050e-02
	5.413556866342556e-02

 65	5.315097869290216e-09
	3.750390400554687e-02
	9.963696371190700e-02
	8.496902034863577e-02
	4.423937183783100e-02

 66	5.415097869290216e-09
	3.483343607571703e-02
	9.128960188115752e-02
	7.536151628813458e-02
	3.656534650585735e-02

 67	5.515097869290216e-09
	3.304477135981049e-02
	8.421952277288547e-02
	6.731009977431622e-02
	3.044368326863478e-02

 68	5.615097869290216e-09
	3.127282574793237e-02
	7.819024467345306e-02
	6.061919762684972e-02
	2.545518408125247e-02

 69	5.715097869290216e-09
	2.938588976059887e-02
	7.289674084882512e-02
	5.484721834847594e-02
	2.128004013207507e-02

 70	5.815097869290216e-09
	2.771777315038259e-02
	6.818705808905146e-02
	4.981284657184583e-02
	1.765022826489868e-02

 71	5.915097869290216e-09
	2.660731892457027e-02
	6.409516109371666e-02
	4.539121331800001e-02
	1.461346787673407e-02

 72	6.015097869290216e-09
	2.492230393192096e-02
	6.035055710667053e-02
	4.150881695323323e-02
	1.221653107616944e-02

 73	6.115097869290216e-09
	2.121406749012051e-02
	5.728145210330684e-02
	3.829769385643563e-02
	1.027569837266403e-02

 74	6.215097869290216e-09
	1.539887558405731e-02
	5.468887846976944e-02
	3.585619971576417e-02
	9.137633575295867e-03

 75	6.315097869290216e-09
	9.491408702516684e-03
	5.242374460228151e-02
	3.425984548374895e-02
	8.257408800317504e-03

 76	6.415097869290216e-09
	4.361901659961565e-03
	5.037719099773630e-02
	3.378296028944363e-02
	7.394902004393573e-03

 77	6.515097869290216e-09
	1.331288705930964e-03
	4.897537915958174e-02
	3.367401837858779e-02
	6.592193350043011e-03

 78	6.615097869290216e-09
	5.077419950167105e-03
	4.830588916381940e-02
	3.331047449656257e-02
	6.000128226554801e-03

 79	6.715097869290217e-09
	1.016400248523447e-02
	4.817038418407524e-02
	3.235234216808641e-02
	5.759714273247568e-03

 80	6.815097869290217e-09
	3.102259858525932e-02
	4.777189256898486e-02
	3.077761473625695e-02
	6.071484738973777e-03

 81	6.915097869290217e-09
	6.411451432983807e-02
	4.580532408194449e-02
	2.845322449497284e-02
	5.472324855383904e-03

 82	7.015097869290217e-09
	1.045668706093277e-01
	4.221343427043734e-02
	2.601213661406363e-02
	3.472314292407000e-03

 83	7.115097869290217e-09
	1.485546960624526e-01
	3.693028605084617e-02
	2.367040531279614e-02
	-6.897873631135866e-04

 84	7.215097869290217e-09
	1.939188861756706e-01
	3.116096997446586e-02
	2.042032002526381e-02
	-6.629055236863966e-03

 85	7.315097869290217e-09
	2.402322054790730e-01
	2.652753580999578e-02
	1.587691148644395e-02
	-1.347804992844938e-02

 86	7.415097869290217e-09
	2.878707466262246e-01
	2.484740300299078e-02
	1.005682988364105e-02
	-2.154964961617170e-02

 87	7.515097869290216e-09
	3.381006830793105e-01
	2.786153250061438e-02
	3.800276959799962e-03
	-3.029833292849186e-02

 88	7.615097869290215e-09
	3.940454449744081e-01
	3.082590554518012e-02
	-2.781872961839781e-03
	-3.441169662429391e-02

 89	7.715097869290215e-09
	4.608757242571794e-01
	4.506512893734092e-02
	-9.157063672747349e-03
	-3.617685253349534e-02

 90	7.815097869290214e-09
	5.390463168134941e-01
	6.955658145742301e-02
	-1.069733833718079e-02
	-2.036289671691390e-02

 91	7.915097869290213e-09
	6.163898753280126e-01
	9.961690886227513e-02
	-1.244197809044749e-02
	1.335077151823416e-02

 92	8.015097869290212e-09
	6.779799211486832e-01
	1.328396442877652e-01
	-2.607684794018868e-03
	5.608204597526237e-02

 93	8.115097869290212e-09
	7.245786532605356e-01
	1.681292283445124e-01
	1.987020990750697e-02
	1.033142524540121e-01

 94	8.215097869290211e-09
	7.609760838987715e-01
	2.049178438167553e-01
	4.895347773968368e-02
	1.529764402495695e-01

 95	8.315097869290210e-09
	7.895551681344843e-01
	2.431150114709171e-01
	8.079418273450889e-02
	2.045338805900075e-01

 96	8.415097869290209e-09
	8.123897525173435e-01
	2.828613018113939e-01
	1.135380771364153e-01
	2.584315052833576e-01

 97	8.515097869290209e-09
	8.309468576069823e-01
	3.246589766766922e-01
	1.465570764272179e-01
	3.159202378758204e-01

 98	8.615097869290208e-09
	8.462545303874209e-01
	3.700178181971043e-01
	1.797535873524105e-01
	3.790447344451964e-01

 99	8.715097869290207e-09
	8.590399916282017e-01
	4.219124754733768e-01
	2.132673190215040e-01
	4.504908759720053e-01

 100	8.815097869290206e-09
	8.698017831563634e-01
	4.838372467490200e-01
	2.473816243660937e-01
	5.330531780653051e-01

 101	8.915097869290206e-09
	8.788665774414961e-01
	5.527725918147988e-01
	2.825034932961934e-01
	6.181299222178194e-01

 102	9.015097869290205e-09
	8.863551628604186e-01
	6.171882465949829e-01
	3.192229895608677e-01
	6.883668599091687e-01

 103	9.115097869290204e-09
	8.921304371534012e-01
	6.688274865780092e-01
	3.583949777129006e-01
	7.439198169502265e-01

 104	9.215097869290203e-09
	8.971159730083502e-01
	7.087599140540312e-01
	4.013312209136511e-01
	7.884428282748995e-01

 105	9.315097869290203e-09
	9.018386899512238e-01
	7.406355624028018e-01
	4.501919277592672e-01
	8.230370468783829e-01

 106	9.415097869290202e-09
	9.056618072298810e-01
	7.658144805501425e-01
	5.069642956947591e-01
	8.498867880786303e-01

 107	9.515097869290201e-09
	9.083934074741420e-01
	7.849536407265270e-01
	5.675500792959006e-01
	8.711057930258533e-01

 108	9.615097869290200e-09
	9.106199941957821e-01
	7.992932300508623e-01
	6.241986498196913e-01
	8.881943040378398e-01

 109	9.715097869290200e-09
	9.130010088004712e-01
	8.105794986328838e-01
	6.713245283570034e-01
	9.021071599886705e-01

 110	9.815097869290199e-09
	9.155233640017031e-01
	8.200451057929466e-01
	7.095146491786640e-01
	9.133856870202458e-01

 111	9.915097869290198e-09
	9.180041154865386e-01
	8.282545064300865e-01
	7.409967724232889e-01
	9.221067172845427e-01

 112	1.001509786929020e-08
	9.203264393073842e-01
	8.354935787074905e-01
	7.669916205247251e-01
	9.286138628150885e-01

 113	1.011509786929020e-08
	9.224529699595655e-01
	8.419080095273218e-01
	7.887768965436410e-01
	9.346297493158413e-01

 114	1.021509786929020e-08
	9.242425092114704e-01
	8.475360896234813e-01
	8.073710923675337e-01
	9.391478991580273e-01

 115	1.031509786929019e-08
	9.258996206360396e-01
	8.523635307612129e-01
	8.233794960496111e-01
	9.420436478590770e-01

 116	1.041509786929019e-08
	9.271462413030448e-01
	8.563271881482077e-01
	8.372275281513563e-01
	9.446989229167110e-01

 117	1.051509786929019e-08
	9.279677966108467e-01
	8.599260958888043e-01
	8.492552727222289e-01
	9.476845105036216e-01

 118	1.061509786929019e-08
	9.285477458890737e-01
	8.634899790503030e-01
	8.597257897986212e-01
	9.507285678247767e-01

 119	1.071509786929019e-08
	9.290810954857879e-01
	8.666710355116836e-01
	8.688156898200914e-01
	9.535626319583779e-01

 120	1.081509786929019e-08
	9.296169447873194e-01
	8.693741797456114e-01
	8.765670510738203e-01
	9.560726366360173e-01

 121	1.091509786929019e-08
	9.302776306349636e-01
	8.715324256265917e-01
	8.828566240750578e-01
	9.582529141098307e-01

 122	1.101509786929019e-08
	9.308613688587452e-01
	8.733421323276845e-01
	8.884371566809893e-01
	9.599841665629294e-01

 123	1.111509786929019e-08
	9.311910342763986e-01
	8.751431176443679e-01
	8.936712079408424e-01
	9.615118042081726e-01

 124	1.121509786929019e-08
	9.313896137511940e-01
	8.770298416782920e-01
	8.981192138700127e-01
	9.625229227766416e-01

 125	1.131509786929019e-08
	9.315819138445742e-01
	8.789446977218910e-01
	9.016236400565640e-01
	9.630848296657075e-01

 126	1.141509786929019e-08
	9.318252259588383e-01
	8.808263760409768e-01
	9.044947424963248e-01
	9.634311421004926e-01

 127	1.151509786929019e-08
	9.315885913155945e-01
	8.826273880366865e-01
	9.073336225980432e-01
	9.637482991868119e-01

 128	1.161509786929019e-08
	9.307988491436626e-01
	8.842458045261813e-01
	9.102616146197168e-01
	9.641164390360949e-01

 129	1.171509786929018e-08
	9.296204454917556e-01
	8.857956629938759e-01
	9.132020314735617e-01
	9.645788474733518e-01

 130	1.181509786929018e-08
	9.288836399872645e-01
	8.870131963759896e-01
	9.161047860398345e-01
	9.649805662543949e-01

 131	1.191509786929018e-08
	9.283991101085097e-01
	8.879279671080753e-01
	9.187871421717979e-01
	9.652838146258332e-01

 132	1.201509786929018e-08
	9.277184478892333e-01
	8.886607487586129e-01
	9.210237201885587e-01
	9.654426412605042e-01

 133	1.211509786929018e-08
	9.289030015488537e-01
	8.893374185106342e-01
	9.229769911293086e-01
	9.655272949280611e-01

 134	1.221509786929018e-08
	9.316205937453498e-01
	8.900168692549784e-01
	9.244664639858529e-01
	9.655316994951914e-01

 135	1.231509786929018e-08
	9.400972221308387e-01
	8.907146362825106e-01
	9.252558910427560e-01
	9.651125366788738e-01

 136	1.241509786929018e-08
	9.506343408902649e-01
	8.913195201813131e-01
	9.254184850762692e-01
	9.646757569809008e-01

 137	1.251509786929018e-08
	9.598600587404301e-01
	8.918242280736172e-01
	9.251072256680689e-01
	9.639374020285427e-01

 138	1.261509786929018e-08
	9.664717534190610e-01
	8.922379313105965e-01
	9.245565771779779e-01
	9.634123564650162e-01

 139	1.271509786929018e-08
	9.687774526138689e-01
	8.926672368347209e-01
	9.243596728166292e-01
	9.630345317214338e-01

 140	1.281509786929018e-08
	9.577032866405820e-01
	8.931011179921693e-01
	9.247234925600252e-01
	9.624547234195925e-01

 141	1.291509786929018e-08
	9.387311628983015e-01
	8.933098569934911e-01
	9.260979657682005e-01
	9.618602613073313e-01

 142	1.301509786929017e-08
	8.999266931827179e-01
	8.933782678082780e-01
	9.286605709075852e-01
	9.624843579476049e-01

 143	1.311509786929017e-08
	8.399639233916406e-01
	8.932907866938034e-01
	9.310214885930260e-01
	9.632580667895665e-01

 144	1.321509786929017e-08
	7.646564322898215e-01
	8.933849752638438e-01
	9.322131794642364e-01
	9.676812827196686e-01

 145	1.331509786929017e-08
	6.735992631950360e-01
	8.933972623482705e-01
	9.331886371218066e-01
	9.749770185929227e-01

 146	1.341509786929017e-08
	5.531334113841636e-01
	8.930551181413343e-01
	9.345871928966593e-01
	9.833935810188629e-01

 147	1.351509786929017e-08
	4.139791947969356e-01
	8.930368529531987e-01
	9.362563729295362e-01
	9.919219729800887e-01

 148	1.361509786929017e-08
	3.144069593606109e-01
	8.930295423320829e-01
	9.385568611638252e-01
	1.000379745657420e+00

 149	1.371509786929017e-08
	2.424731265168595e-01
	8.943022355135122e-01
	9.413060466592077e-01
	1.009196521248308e+00

 150	1.381509786929017e-08
	1.870598633359133e-01
	8.983485747854021e-01
	9.440863667845145e-01
	1.012873207311161e+00

 151	1.391509786929017e-08
	1.450253734029480e-01
	9.040534558345030e-01
	9.467568470101697e-01
	1.004341857072627e+00

 152	1.401509786929017e-08
	1.138223583686247e-01
	9.102104482208704e-01
	9.502459205421959e-01
	9.824491913953857e-01

 153	1.411509786929017e-08
	9.022807241709491e-02
	9.147443560830614e-01
	9.531922777878525e-01
	9.356332817458287e-01

 154	1.421509786929017e-08
	7.273570241943690e-02
	9.148815407164619e-01
	9.582704603301938e-01
	8.699646752925849e-01

 155	1.431509786929016e-08
	6.058499029725496e-02
	9.098175783589885e-01
	9.652803234492456e-01
	7.910705652052885e-01

 156	1.441509786929016e-08
	5.224914518223332e-02
	8.976064478771824e-01
	9.729932903159728e-01
	7.004212891444621e-01

 157	1.451509786929016e-08
	4.662059562715974e-02
	8.826498394076900e-01
	9.806001256956758e-01
	5.927334637420909e-01

 158	1.461509786929016e-08
	4.291654463237943e-02
	8.568993108183155e-01
	9.877602470164324e-01
	4.639321053021150e-01

 159	1.471509786929016e-08
	4.003155200500064e-02
	8.168769531415246e-01
	9.944074614987582e-01
	3.473228824863889e-01

 160	1.481509786929016e-08
	3.870587037373974e-02
	7.665040437415734e-01
	9.972528385533251e-01
	2.678661273238118e-01

 161	1.491509786929016e-08
	3.794434950785994e-02
	7.067418962985963e-01
	9.910671698713035e-01
	2.047838867546576e-01

 162	1.501509786929016e-08
	3.642859175381816e-02
	6.339101329618835e-01
	9.771724134113797e-01
	1.548268747276041e-01

 163	1.511509786929016e-08
	3.421565375029386e-02
	5.388425566644289e-01
	9.464444888780581e-01
	1.173032758489640e-01

 164	1.521509786929016e-08
	3.157881478326677e-02
	4.328559457708404e-01
